time	V(vd)	V(vg)	Id(M1)
0.000000000000000e+000	4.463421e-002	1.149997e+001	5.031549e-001
1.399999690829268e-012	4.463421e-002	1.149997e+001	5.031549e-001
1.999999775167960e-012	4.463422e-002	1.149997e+001	5.031549e-001
2.159999826570336e-012	4.463422e-002	1.149997e+001	5.031550e-001
2.479999712534653e-012	4.463422e-002	1.149997e+001	5.031550e-001
3.119999701303722e-012	4.463422e-002	1.149997e+001	5.031550e-001
4.399999462001425e-012	4.463423e-002	1.149997e+001	5.031551e-001
6.959999200237266e-012	4.463424e-002	1.149997e+001	5.031552e-001
1.207999867670895e-011	4.463426e-002	1.149997e+001	5.031555e-001
2.231999762965231e-011	4.463431e-002	1.149997e+001	5.031559e-001
4.279999531869860e-011	4.463441e-002	1.149997e+001	5.031570e-001
8.375999069679119e-011	4.463464e-002	1.149998e+001	5.031590e-001
1.656799814529764e-010	4.463520e-002	1.150000e+001	5.031630e-001
3.124814901191847e-010	4.463642e-002	1.150006e+001	5.031703e-001
4.685381819937579e-010	4.463800e-002	1.150016e+001	5.031779e-001
6.729884208505482e-010	4.464033e-002	1.150031e+001	5.031881e-001
7.502511058157108e-010	4.464127e-002	1.150037e+001	5.031919e-001
8.474746299690084e-010	4.464250e-002	1.150045e+001	5.031968e-001
1.001999999899333e-009	4.464447e-002	1.150059e+001	5.032045e-001
1.017452536935734e-009	4.464467e-002	1.150061e+001	5.032052e-001
1.048357611008535e-009	4.464504e-002	1.150063e+001	5.032068e-001
1.110167758937297e-009	4.464574e-002	1.150068e+001	5.032099e-001
1.233788054794821e-009	4.464693e-002	1.150076e+001	5.032161e-001
1.481028646726709e-009	4.464871e-002	1.150087e+001	5.032285e-001
1.864532417350517e-009	4.465057e-002	1.150096e+001	5.032477e-001
2.261766557680109e-009	4.465164e-002	1.150099e+001	5.032675e-001
2.620951596813553e-009	4.465176e-002	1.150093e+001	5.032855e-001
2.835250279779183e-009	4.465102e-002	1.150080e+001	5.032963e-001
2.979669446291980e-009	4.464964e-002	1.150062e+001	5.033037e-001
3.120913668989978e-009	4.464711e-002	1.150031e+001	5.033110e-001
3.300829978705039e-009	4.464201e-002	1.149972e+001	5.033203e-001
3.492520115125353e-009	4.463366e-002	1.149878e+001	5.033303e-001
3.827598863510515e-009	4.461144e-002	1.149624e+001	5.033477e-001
4.427865470330375e-009	4.455632e-002	1.148967e+001	5.033786e-001
5.047180673617771e-009	4.448648e-002	1.148064e+001	5.034100e-001
5.763626694833823e-009	4.439868e-002	1.146790e+001	5.034457e-001
6.459729663503555e-009	4.431412e-002	1.145381e+001	5.034803e-001
7.100427267849041e-009	4.423647e-002	1.143919e+001	5.035123e-001
7.629175541312705e-009	4.415724e-002	1.142428e+001	5.035408e-001
8.003550806909981e-009	4.405974e-002	1.140856e+001	5.035636e-001
8.435339294687178e-009	4.388091e-002	1.138264e+001	5.035903e-001
8.805949310670622e-009	4.368883e-002	1.135514e+001	5.036106e-001
9.217935830222943e-009	4.346584e-002	1.132063e+001	5.036309e-001
1.004190886932758e-008	4.305860e-002	1.124687e+001	5.036695e-001
1.104190886923491e-008	4.265415e-002	1.115409e+001	5.037155e-001
1.204190886914223e-008	4.235926e-002	1.105960e+001	5.037618e-001
1.304190886904956e-008	4.216627e-002	1.096451e+001	5.038087e-001
1.404190886895688e-008	4.205181e-002	1.086960e+001	5.038556e-001
1.451957001028306e-008	4.203187e-002	1.082536e+001	5.038771e-001
1.483946535834127e-008	4.204333e-002	1.079717e+001	5.038912e-001
1.516806931835604e-008	4.207174e-002	1.076926e+001	5.039067e-001
1.543825936252234e-008	4.210036e-002	1.074659e+001	5.039198e-001
1.572875560460103e-008	4.213490e-002	1.072246e+001	5.039338e-001
1.608621607641393e-008	4.218202e-002	1.069308e+001	5.039511e-001
1.629179991651311e-008	4.221190e-002	1.067640e+001	5.039610e-001
1.653054300149344e-008	4.224943e-002	1.065725e+001	5.039726e-001
1.674686662912414e-008	4.228489e-002	1.064002e+001	5.039832e-001
1.686201554339933e-008	4.230422e-002	1.063088e+001	5.039889e-001
1.702071178444342e-008	4.233120e-002	1.061832e+001	5.039967e-001
1.715436619728443e-008	4.235408e-002	1.060776e+001	5.040033e-001
1.729853263215085e-008	4.237892e-002	1.059639e+001	5.040105e-001
1.747666896205653e-008	4.240979e-002	1.058236e+001	5.040193e-001
1.766659077557554e-008	4.244290e-002	1.056743e+001	5.040287e-001
1.797064125568133e-008	4.249626e-002	1.054358e+001	5.040438e-001
1.827053536826266e-008	4.254934e-002	1.052014e+001	5.040587e-001
1.887032359342532e-008	4.265653e-002	1.047343e+001	5.040885e-001
1.944371210479273e-008	4.276020e-002	1.042900e+001	5.041170e-001
2.033188100259570e-008	4.292298e-002	1.036060e+001	5.041611e-001
2.124768976323639e-008	4.309324e-002	1.029056e+001	5.042065e-001
2.224768976314372e-008	4.328205e-002	1.021467e+001	5.042562e-001
2.324768976305104e-008	4.347378e-002	1.013938e+001	5.043059e-001
2.424768976295837e-008	4.366850e-002	1.006470e+001	5.043555e-001
2.524768976286569e-008	4.386622e-002	9.990620e+000	5.044052e-001
2.624768976277302e-008	4.406700e-002	9.917133e+000	5.044549e-001
2.724768976268034e-008	4.427087e-002	9.844236e+000	5.045046e-001
2.824768976258767e-008	4.447791e-002	9.771924e+000	5.045542e-001
2.924768976249499e-008	4.468817e-002	9.700191e+000	5.046039e-001
3.024768976240232e-008	4.490174e-002	9.629034e+000	5.046535e-001
3.124768976230964e-008	4.511869e-002	9.558447e+000	5.047031e-001
3.324768976212429e-008	4.556305e-002	9.418966e+000	5.048024e-001
3.524768976193894e-008	4.602194e-002	9.281713e+000	5.049016e-001
3.724768976175359e-008	4.649608e-002	9.146653e+000	5.050009e-001
3.996197547578776e-008	4.715863e-002	8.967002e+000	5.051355e-001
4.267626118982193e-008	4.785931e-002	8.791043e+000	5.052702e-001
4.539054690385610e-008	4.859813e-002	8.618776e+000	5.054047e-001
4.810483261789027e-008	4.937507e-002	8.450201e+000	5.055393e-001
5.081911833192444e-008	5.019016e-002	8.285319e+000	5.056737e-001
5.353340404595861e-008	5.104337e-002	8.124129e+000	5.058082e-001
5.624768975999277e-008	5.193472e-002	7.966632e+000	5.059426e-001
5.924768975971474e-008	5.296614e-002	7.796547e+000	5.060910e-001
6.224768975943672e-008	5.408232e-002	7.630332e+000	5.062394e-001
6.524768975915869e-008	5.528325e-002	7.467987e+000	5.063877e-001
6.824768975888067e-008	5.656894e-002	7.309512e+000	5.065358e-001
7.124768975860264e-008	5.793937e-002	7.154907e+000	5.066839e-001
7.424768975832462e-008	5.939456e-002	7.004172e+000	5.068318e-001
7.724768975804659e-008	6.093450e-002	6.857307e+000	5.069796e-001
7.967626118639296e-008	6.226049e-002	6.740959e+000	5.070992e-001
8.210483261473932e-008	6.369696e-002	6.626829e+000	5.072186e-001
8.453340404308567e-008	6.524389e-002	6.514918e+000	5.073379e-001
8.696197547143204e-008	6.690129e-002	6.405225e+000	5.074569e-001
8.939054689977841e-008	6.866916e-002	6.297750e+000	5.075759e-001
9.181911832812476e-008	7.054750e-002	6.192493e+000	5.076946e-001
9.424768975647112e-008	7.253631e-002	6.089455e+000	5.078132e-001
9.724768975619309e-008	7.524721e-002	5.964974e+000	5.079592e-001
1.002476897559151e-007	7.823348e-002	5.843663e+000	5.081049e-001
1.032476897556370e-007	8.153842e-002	5.725479e+000	5.082500e-001
1.062476897553590e-007	8.521475e-002	5.610390e+000	5.083944e-001
1.092476897550810e-007	8.932726e-002	5.498374e+000	5.085380e-001
1.122476897548030e-007	9.395652e-002	5.389424e+000	5.086806e-001
1.142476897546176e-007	9.737869e-002	5.318496e+000	5.087749e-001
1.162476897544323e-007	1.011114e-001	5.248941e+000	5.088687e-001
1.182476897542469e-007	1.051976e-001	5.180772e+000	5.089616e-001
1.202476897540616e-007	1.096885e-001	5.114008e+000	5.090536e-001
1.222476897538762e-007	1.146454e-001	5.048675e+000	5.091445e-001
1.242476897536909e-007	1.201418e-001	4.984810e+000	5.092341e-001
1.262476897535055e-007	1.262674e-001	4.922462e+000	5.093222e-001
1.282476897533202e-007	1.331317e-001	4.861695e+000	5.094081e-001
1.292476897532275e-007	1.368819e-001	4.831929e+000	5.094503e-001
1.302476897531348e-007	1.408698e-001	4.802592e+000	5.094917e-001
1.312476897530421e-007	1.451177e-001	4.773698e+000	5.095325e-001
1.322476897529495e-007	1.496501e-001	4.745263e+000	5.095723e-001
1.332476897528568e-007	1.544950e-001	4.717306e+000	5.096111e-001
1.342476897527641e-007	1.596836e-001	4.689849e+000	5.096489e-001
1.352476897526714e-007	1.652511e-001	4.662916e+000	5.096855e-001
1.362476897525788e-007	1.712374e-001	4.636535e+000	5.097208e-001
1.372476897524861e-007	1.776875e-001	4.610738e+000	5.097545e-001
1.382476897523934e-007	1.846524e-001	4.585562e+000	5.097864e-001
1.392476897523007e-007	1.921901e-001	4.561049e+000	5.098164e-001
1.402476897522081e-007	2.003664e-001	4.537245e+000	5.098441e-001
1.412476897521154e-007	2.092562e-001	4.514207e+000	5.098692e-001
1.422476897520227e-007	2.189448e-001	4.491997e+000	5.098914e-001
1.432476897519300e-007	2.295292e-001	4.470687e+000	5.099102e-001
1.442476897518374e-007	2.411199e-001	4.450359e+000	5.099253e-001
1.452476897517447e-007	2.538423e-001	4.431107e+000	5.099361e-001
1.462476897516520e-007	2.678387e-001	4.413036e+000	5.099419e-001
1.472476897515593e-007	2.832698e-001	4.396268e+000	5.099423e-001
1.482476897514667e-007	3.003160e-001	4.380938e+000	5.099365e-001
1.492476897513740e-007	3.191788e-001	4.367197e+000	5.099238e-001
1.502476897512813e-007	3.400803e-001	4.355211e+000	5.099036e-001
1.512476897511886e-007	3.632624e-001	4.345161e+000	5.098751e-001
1.522476897510960e-007	3.889832e-001	4.337242e+000	5.098380e-001
1.532476897510033e-007	4.175111e-001	4.331652e+000	5.097920e-001
1.542476897509106e-007	4.489992e-001	4.328492e+000	5.097444e-001
1.552476897508179e-007	4.829729e-001	4.327346e+000	5.097277e-001
1.562476897507253e-007	5.181926e-001	4.327192e+000	5.097584e-001
1.572476897506326e-007	5.536380e-001	4.327213e+000	5.098062e-001
1.582476897505399e-007	5.890638e-001	4.327219e+000	5.098522e-001
1.612476897502619e-007	6.953386e-001	4.327229e+000	5.099900e-001
1.688191183209888e-007	9.630835e-001	4.327164e+000	5.103320e-001
1.763905468917157e-007	1.231159e+000	4.327056e+000	5.106634e-001
1.839619754624426e-007	1.499565e+000	4.326905e+000	5.109843e-001
1.915334040331695e-007	1.768301e+000	4.326712e+000	5.112948e-001
1.991048326038964e-007	2.037368e+000	4.326476e+000	5.115947e-001
2.066762611746232e-007	2.306765e+000	4.326198e+000	5.118842e-001
2.142476897453501e-007	2.576493e+000	4.325878e+000	5.121632e-001
2.181048326021355e-007	2.714040e+000	4.325716e+000	5.123014e-001
2.219619754589209e-007	2.852981e+000	4.325538e+000	5.124335e-001
2.258191183157063e-007	2.993317e+000	4.325345e+000	5.125593e-001
2.296762611724917e-007	3.135048e+000	4.325136e+000	5.126789e-001
2.335334040292771e-007	3.278173e+000	4.324911e+000	5.127923e-001
2.373905468860625e-007	3.422692e+000	4.324671e+000	5.128995e-001
2.412476897428479e-007	3.568607e+000	4.324416e+000	5.130005e-001
2.436762611711943e-007	3.661807e+000	4.324241e+000	5.130591e-001
2.461048325995406e-007	3.757598e+000	4.324045e+000	5.131097e-001
2.485334040278870e-007	3.855981e+000	4.323827e+000	5.131521e-001
2.509619754562334e-007	3.956956e+000	4.323586e+000	5.131864e-001
2.533905468845797e-007	4.060522e+000	4.323323e+000	5.132125e-001
2.558191183129261e-007	4.166680e+000	4.323039e+000	5.132306e-001
2.582476897412724e-007	4.275429e+000	4.322732e+000	5.132405e-001
2.612476897409944e-007	4.417654e+000	4.322293e+000	5.132307e-001
2.642476897407164e-007	4.568347e+000	4.321795e+000	5.131986e-001
2.663905468833749e-007	4.681171e+000	4.321389e+000	5.131570e-001
2.685334040260335e-007	4.800686e+000	4.320962e+000	5.131075e-001
2.706762611686920e-007	4.926893e+000	4.320515e+000	5.130499e-001
2.728191183113506e-007	5.059790e+000	4.320047e+000	5.129842e-001
2.749619754540092e-007	5.199378e+000	4.319558e+000	5.129104e-001
2.771048325966677e-007	5.345658e+000	4.319049e+000	5.128286e-001
2.792476897393263e-007	5.498628e+000	4.318519e+000	5.127387e-001
2.843905468817068e-007	5.907047e+000	4.317281e+000	5.125378e-001
2.895334040240873e-007	6.340971e+000	4.316070e+000	5.123416e-001
2.946762611664678e-007	6.800401e+000	4.314885e+000	5.121501e-001
2.998191183088484e-007	7.285338e+000	4.313727e+000	5.119632e-001
3.049619754512289e-007	7.795780e+000	4.312595e+000	5.117809e-001
3.101048325936094e-007	8.331729e+000	4.311488e+000	5.116033e-001
3.152476897359900e-007	8.893184e+000	4.310409e+000	5.114304e-001
3.199619754498387e-007	9.412625e+000	4.309410e+000	5.112609e-001
3.246762611636876e-007	9.938907e+000	4.308401e+000	5.110653e-001
3.293905468775364e-007	1.047203e+001	4.307381e+000	5.108436e-001
3.341048325913852e-007	1.101199e+001	4.306351e+000	5.105956e-001
3.388191183052340e-007	1.155879e+001	4.305310e+000	5.103216e-001
3.435334040190829e-007	1.211243e+001	4.304259e+000	5.100213e-001
3.482476897329317e-007	1.267292e+001	4.303197e+000	5.096949e-001
3.513905468754975e-007	1.304783e+001	4.302479e+000	5.094562e-001
3.545334040180635e-007	1.342420e+001	4.301746e+000	5.091821e-001
3.576762611606293e-007	1.380203e+001	4.300999e+000	5.088727e-001
3.608191183031952e-007	1.418131e+001	4.300237e+000	5.085279e-001
3.639619754457611e-007	1.456205e+001	4.299459e+000	5.081478e-001
3.671048325883270e-007	1.494425e+001	4.298667e+000	5.077324e-001
3.702476897308928e-007	1.532791e+001	4.297861e+000	5.072816e-001
3.722476897307075e-007	1.557252e+001	4.297338e+000	5.069713e-001
3.742476897305221e-007	1.581750e+001	4.296795e+000	5.066133e-001
3.762476897303368e-007	1.606285e+001	4.296232e+000	5.062074e-001
3.782476897301514e-007	1.630856e+001	4.295649e+000	5.057537e-001
3.802476897299661e-007	1.655463e+001	4.295046e+000	5.052522e-001
3.822476897297807e-007	1.680107e+001	4.294423e+000	5.047029e-001
3.842476897295954e-007	1.704787e+001	4.293779e+000	5.041057e-001
3.872476897293174e-007	1.741848e+001	4.292721e+000	5.029868e-001
3.892476897291320e-007	1.766581e+001	4.291944e+000	5.020704e-001
3.912476897289467e-007	1.791330e+001	4.291084e+000	5.009586e-001
3.922476897288540e-007	1.803707e+001	4.290612e+000	5.003024e-001
3.932476897287613e-007	1.816082e+001	4.290096e+000	4.995354e-001
3.942476897286686e-007	1.828437e+001	4.289437e+000	4.983805e-001
3.952476897285760e-007	1.840615e+001	4.287807e+000	4.944730e-001
3.962476897284833e-007	1.852115e+001	4.282564e+000	4.802157e-001
3.968742068257997e-007	1.858314e+001	4.273932e+000	4.580874e-001
3.975026904323199e-007	1.863269e+001	4.258578e+000	4.220699e-001
3.981590159223697e-007	1.867279e+001	4.236433e+000	3.750635e-001
3.990758259909879e-007	1.871537e+001	4.198570e+000	3.037919e-001
4.000758259908952e-007	1.875081e+001	4.151771e+000	2.284385e-001
4.010758259908025e-007	1.877795e+001	4.100990e+000	1.620905e-001
4.020758259907099e-007	1.879910e+001	4.047536e+000	1.089745e-001
4.030758259906172e-007	1.881583e+001	3.992298e+000	7.046983e-002
4.040758259905245e-007	1.882917e+001	3.935927e+000	4.552107e-002
4.050758259904318e-007	1.883993e+001	3.878965e+000	3.122105e-002
4.060758259903392e-007	1.884876e+001	3.821870e+000	2.393265e-002
4.070758259902465e-007	1.885617e+001	3.765001e+000	2.050753e-002
4.080758259901538e-007	1.886251e+001	3.708606e+000	1.889576e-002
4.090758259900611e-007	1.886804e+001	3.652844e+000	1.803511e-002
4.100758259899685e-007	1.887294e+001	3.597811e+000	1.746841e-002
4.120758259897831e-007	1.888130e+001	3.490145e+000	1.661508e-002
4.145043974181295e-007	1.888898e+001	3.364226e+000	1.576182e-002
4.169329688464759e-007	1.889588e+001	3.243202e+000	1.495584e-002
4.193615402748222e-007	1.890199e+001	3.127072e+000	1.419714e-002
4.217901117031686e-007	1.890731e+001	3.015836e+000	1.348571e-002
4.242186831315149e-007	1.891184e+001	2.909494e+000	1.282155e-002
4.266472545598613e-007	1.891559e+001	2.808047e+000	1.220467e-002
4.290758259882076e-007	1.891854e+001	2.711494e+000	1.163507e-002
4.319329688450857e-007	1.892195e+001	2.603727e+000	1.099057e-002
4.347901117019638e-007	1.892509e+001	2.501023e+000	1.037865e-002
4.376472545588418e-007	1.892795e+001	2.403380e+000	9.799307e-003
4.405043974157199e-007	1.893054e+001	2.310800e+000	9.252545e-003
4.433615402725980e-007	1.893286e+001	2.223282e+000	8.738362e-003
4.462186831294761e-007	1.893491e+001	2.140825e+000	8.256759e-003
4.490758259863541e-007	1.893669e+001	2.063431e+000	7.807736e-003
4.526472545574517e-007	1.893875e+001	1.972662e+000	7.281826e-003
4.562186831285493e-007	1.894065e+001	1.887066e+000	6.787040e-003
4.597901116996469e-007	1.894240e+001	1.806640e+000	6.323379e-003
4.633615402707445e-007	1.894399e+001	1.731387e+000	5.890843e-003
4.669329688418421e-007	1.894543e+001	1.661305e+000	5.489431e-003
4.705043974129397e-007	1.894671e+001	1.596395e+000	5.119143e-003
4.740758259840373e-007	1.894784e+001	1.536657e+000	4.779980e-003
4.785043974121982e-007	1.894913e+001	1.468117e+000	4.391869e-003
4.829329688403593e-007	1.895032e+001	1.404182e+000	4.030860e-003
4.873615402685203e-007	1.895141e+001	1.344854e+000	3.696952e-003
4.917901116966813e-007	1.895241e+001	1.290131e+000	3.390144e-003
4.962186831248423e-007	1.895331e+001	1.240015e+000	3.110439e-003
5.006472545530034e-007	1.895411e+001	1.194504e+000	2.857834e-003
5.050758259811643e-007	1.895482e+001	1.153600e+000	2.632330e-003
5.096472545521693e-007	1.895550e+001	1.114520e+000	2.417800e-003
5.142186831231742e-007	1.895614e+001	1.078072e+000	2.218566e-003
5.187901116941791e-007	1.895673e+001	1.044256e+000	2.034627e-003
5.233615402651840e-007	1.895728e+001	1.013071e+000	1.865984e-003
5.279329688361889e-007	1.895779e+001	9.845182e-001	1.712637e-003
5.325043974071939e-007	1.895825e+001	9.585968e-001	1.574585e-003
5.370758259781987e-007	1.895867e+001	9.353069e-001	1.451830e-003
5.417901116920476e-007	1.895907e+001	9.130438e-001	1.335334e-003
5.465043974058963e-007	1.895945e+001	8.922533e-001	1.227279e-003
5.512186831197452e-007	1.895981e+001	8.729353e-001	1.127665e-003
5.559329688335940e-007	1.896015e+001	8.550898e-001	1.036492e-003
5.606472545474429e-007	1.896047e+001	8.387169e-001	9.537593e-004
5.653615402612916e-007	1.896077e+001	8.238164e-001	8.794672e-004
5.700758259751405e-007	1.896104e+001	8.103886e-001	8.136159e-004
5.749329688318332e-007	1.896131e+001	7.975184e-001	7.512059e-004
5.797901116885259e-007	1.896157e+001	7.854621e-001	6.933395e-004
5.846472545452187e-007	1.896182e+001	7.742197e-001	6.400167e-004
5.895043974019114e-007	1.896205e+001	7.637913e-001	5.912375e-004
5.943615402586040e-007	1.896228e+001	7.541769e-001	5.470018e-004
5.992186831152968e-007	1.896249e+001	7.453763e-001	5.073098e-004
6.040758259719895e-007	1.896270e+001	7.373897e-001	4.721613e-004
6.093615402572139e-007	1.896291e+001	7.292868e-001	4.370862e-004
6.146472545424384e-007	1.896312e+001	7.216791e-001	4.046341e-004
6.199329688276628e-007	1.896333e+001	7.145666e-001	3.748050e-004
6.252186831128872e-007	1.896352e+001	7.079493e-001	3.475989e-004
6.305043973981117e-007	1.896372e+001	7.018272e-001	3.230157e-004
6.357901116833361e-007	1.896390e+001	6.962002e-001	3.010556e-004
6.410758259685605e-007	1.896408e+001	6.910685e-001	2.817184e-004
6.469329688251606e-007	1.896428e+001	6.857439e-001	2.620790e-004
6.527901116817607e-007	1.896447e+001	6.807268e-001	2.439236e-004
6.586472545383607e-007	1.896466e+001	6.760172e-001	2.272523e-004
6.645043973949608e-007	1.896484e+001	6.716150e-001	2.120650e-004
6.703615402515607e-007	1.896502e+001	6.675202e-001	1.983619e-004
6.762186831081608e-007	1.896520e+001	6.637328e-001	1.861429e-004
6.820758259647609e-007	1.896538e+001	6.602529e-001	1.754079e-004
6.887901116784244e-007	1.896558e+001	6.565014e-001	1.641225e-004
6.955043973920878e-007	1.896578e+001	6.529534e-001	1.536904e-004
7.022186831057513e-007	1.896597e+001	6.496089e-001	1.441117e-004
7.089329688194148e-007	1.896617e+001	6.464679e-001	1.353863e-004
7.156472545330783e-007	1.896636e+001	6.435303e-001	1.275143e-004
7.223615402467416e-007	1.896655e+001	6.407962e-001	1.204956e-004
7.290758259604051e-007	1.896674e+001	6.382657e-001	1.143302e-004
7.372186831025076e-007	1.896696e+001	6.353719e-001	1.074768e-004
7.453615402446101e-007	1.896719e+001	6.326285e-001	1.011453e-004
7.535043973867127e-007	1.896742e+001	6.300354e-001	9.533576e-005
7.616472545288152e-007	1.896764e+001	6.275927e-001	9.004808e-005
7.697901116709177e-007	1.896786e+001	6.253002e-001	8.528230e-005
7.779329688130202e-007	1.896808e+001	6.231581e-001	8.103843e-005
7.860758259551227e-007	1.896831e+001	6.211663e-001	7.731646e-005
