time	V(gg)	I(L1)
0.000000000000000e+000	0.000000e+000	4.775773e+000
1.271701927790803e-012	1.526042e-002	4.775773e+000
3.815105674952191e-012	4.578127e-002	4.775773e+000
8.153275905982416e-012	9.783931e-002	4.775773e+000
1.255910696620899e-011	1.507093e-001	4.775773e+000
2.092983718195857e-011	2.511581e-001	4.775773e+000
2.880914712517779e-011	3.457098e-001	4.775772e+000
4.450873079386158e-011	5.341048e-001	4.775772e+000
6.716911011769855e-011	8.060293e-001	4.775771e+000
1.124898687653725e-010	1.349878e+000	4.775770e+000
2.031313860607203e-010	2.437577e+000	4.775767e+000
3.844144207598363e-010	4.612973e+000	4.775762e+000
6.374339307259336e-010	7.649207e+000	4.775754e+000
1.000000000015745e-009	1.200000e+001	4.775744e+000
1.036256606998937e-009	1.200000e+001	4.775743e+000
1.108769820856899e-009	1.200000e+001	4.775741e+000
3.385209718244230e-009	1.200000e+001	4.775674e+000
5.661649615631561e-009	1.200000e+001	4.775607e+000
7.938089513018892e-009	1.200000e+001	4.775540e+000
1.021452941040622e-008	1.200000e+001	4.775474e+000
1.249096930779355e-008	1.200000e+001	4.775407e+000
1.476740920518088e-008	1.200000e+001	4.775340e+000
1.704384910256821e-008	1.200000e+001	4.775274e+000
1.854384910242920e-008	1.200000e+001	4.775230e+000
1.904384910238286e-008	1.200000e+001	4.775215e+000
1.954384910233652e-008	1.200000e+001	4.775200e+000
2.004384910229019e-008	1.200000e+001	4.775186e+000
2.054384910224385e-008	1.200000e+001	4.775171e+000
2.104384910219751e-008	1.200000e+001	4.775156e+000
2.154384910215117e-008	1.200000e+001	4.775142e+000
2.204384910210484e-008	1.200000e+001	4.775127e+000
2.254384910205850e-008	1.200000e+001	4.775113e+000
2.304384910201216e-008	1.200000e+001	4.775098e+000
2.354384910196582e-008	1.200000e+001	4.775084e+000
2.404384910191949e-008	1.200000e+001	4.775069e+000
2.454384910187315e-008	1.200000e+001	4.775054e+000
2.504384910182681e-008	1.200000e+001	4.775040e+000
2.554384910178047e-008	1.200000e+001	4.775025e+000
2.604384910173414e-008	1.200000e+001	4.775011e+000
2.654384910168780e-008	1.200000e+001	4.774996e+000
2.704384910164146e-008	1.200000e+001	4.774981e+000
2.804384910154879e-008	1.200000e+001	4.774953e+000
2.904384910145611e-008	1.200000e+001	4.774924e+000
3.004384910136344e-008	1.200000e+001	4.774895e+000
3.054384910131710e-008	1.200000e+001	4.774881e+000
3.104384910127076e-008	1.200000e+001	4.774867e+000
3.154384910122442e-008	1.200000e+001	4.774853e+000
3.204384910117809e-008	1.200000e+001	4.774838e+000
3.254384910113175e-008	1.200000e+001	4.774824e+000
3.304384910108541e-008	1.200000e+001	4.774810e+000
3.404384910099274e-008	1.200000e+001	4.774782e+000
3.554384910085372e-008	1.200000e+001	4.774740e+000
3.675813481502691e-008	1.200000e+001	4.774706e+000
3.797242052920009e-008	1.200000e+001	4.774673e+000
3.918670624337326e-008	1.200000e+001	4.774639e+000
4.040099195754645e-008	1.200000e+001	4.774606e+000
4.161527767171963e-008	1.200000e+001	4.774574e+000
4.282956338589281e-008	1.200000e+001	4.774541e+000
4.404384910006599e-008	1.200000e+001	4.774508e+000
4.497242052855136e-008	1.200000e+001	4.774484e+000
4.590099195703674e-008	1.200000e+001	4.774459e+000
4.682956338552211e-008	1.200000e+001	4.774435e+000
4.775813481400748e-008	1.200000e+001	4.774411e+000
4.868670624249285e-008	1.200000e+001	4.774387e+000
4.961527767097823e-008	1.200000e+001	4.774363e+000
5.054384909946360e-008	1.200000e+001	4.774340e+000
5.104384909941726e-008	1.200000e+001	4.774327e+000
5.154384909937092e-008	1.200000e+001	4.774315e+000
5.204384909932459e-008	1.200000e+001	4.774302e+000
5.221419186189798e-008	1.200000e+001	4.774298e+000
5.227055497876269e-008	1.200000e+001	4.774297e+000
5.232593511261818e-008	1.200000e+001	4.774296e+000
5.234057233319874e-008	1.200000e+001	4.774296e+000
5.235454318046427e-008	1.200000e+001	4.774296e+000
5.236535293210408e-008	1.200000e+001	4.774296e+000
5.237709473505502e-008	1.200000e+001	4.774296e+000
5.239596000778876e-008	1.200000e+001	4.774295e+000
5.242552648964706e-008	1.200000e+001	4.774295e+000
5.248465945325524e-008	1.200000e+001	4.774294e+000
5.257960187599400e-008	1.200000e+001	4.774293e+000
5.270146039124297e-008	1.200000e+001	4.774292e+000
5.286517194716487e-008	1.200000e+001	4.774291e+000
5.312547524029959e-008	1.200000e+001	4.774288e+000
5.476833238300448e-008	1.200000e+001	4.774274e+000
5.641118952570938e-008	1.200000e+001	4.774262e+000
5.805404666841427e-008	1.200000e+001	4.774252e+000
5.969690381111916e-008	1.200000e+001	4.774245e+000
6.133976095382405e-008	1.200000e+001	4.774240e+000
6.298261809652894e-008	1.200000e+001	4.774237e+000
6.462547523923383e-008	1.200000e+001	4.774236e+000
6.591118952482896e-008	1.200000e+001	4.774237e+000
6.719690381042410e-008	1.200000e+001	4.774239e+000
6.848261809601923e-008	1.200000e+001	4.774242e+000
6.976833238161436e-008	1.200000e+001	4.774247e+000
7.105404666720950e-008	1.200000e+001	4.774252e+000
7.233976095280463e-008	1.200000e+001	4.774258e+000
7.362547523839975e-008	1.200000e+001	4.774265e+000
7.498261809541684e-008	1.200000e+001	4.774274e+000
7.633976095243393e-008	1.200000e+001	4.774283e+000
7.769690380945101e-008	1.200000e+001	4.774294e+000
7.905404666646810e-008	1.200000e+001	4.774305e+000
8.041118952348517e-008	1.200000e+001	4.774317e+000
8.176833238050226e-008	1.200000e+001	4.774329e+000
8.312547523751934e-008	1.200000e+001	4.774343e+000
8.462547523738033e-008	1.200000e+001	4.774358e+000
8.612547523724132e-008	1.200000e+001	4.774375e+000
8.762547523710230e-008	1.200000e+001	4.774392e+000
8.912547523696329e-008	1.200000e+001	4.774410e+000
9.062547523682428e-008	1.200000e+001	4.774428e+000
9.212547523668527e-008	1.200000e+001	4.774448e+000
9.362547523654625e-008	1.200000e+001	4.774468e+000
9.641118952200237e-008	1.200000e+001	4.774508e+000
9.919690380745850e-008	1.200000e+001	4.774550e+000
1.019826180929146e-007	1.200000e+001	4.774595e+000
1.047683323783707e-007	1.200000e+001	4.774642e+000
1.075540466638269e-007	1.200000e+001	4.774692e+000
1.103397609492830e-007	1.200000e+001	4.774744e+000
1.131254752347391e-007	1.200000e+001	4.774798e+000
1.164826180915708e-007	1.200000e+001	4.774868e+000
1.198397609484026e-007	1.200000e+001	4.774941e+000
1.231969038052343e-007	1.200000e+001	4.775017e+000
1.265540466620660e-007	1.200000e+001	4.775097e+000
1.299111895188978e-007	1.200000e+001	4.775180e+000
1.332683323757295e-007	1.200000e+001	4.775267e+000
1.366254752325612e-007	1.200000e+001	4.775357e+000
1.371254752325149e-007	1.200000e+001	4.775371e+000
1.376254752324686e-007	1.200000e+001	4.775385e+000
1.395540466608613e-007	1.200000e+001	4.775439e+000
1.414826180892539e-007	1.200000e+001	4.775495e+000
1.434111895176467e-007	1.200000e+001	4.775551e+000
1.453397609460394e-007	1.200000e+001	4.775607e+000
1.472683323744321e-007	1.200000e+001	4.775665e+000
1.491969038028247e-007	1.200000e+001	4.775723e+000
1.511254752312174e-007	1.200000e+001	4.775783e+000
1.524111895168126e-007	1.200000e+001	4.775822e+000
1.536969038024077e-007	1.200000e+001	4.775862e+000
1.549826180880028e-007	1.200000e+001	4.775902e+000
1.562683323735980e-007	1.200000e+001	4.775942e+000
1.575540466591931e-007	1.200000e+001	4.775982e+000
1.588397609447882e-007	1.200000e+001	4.776022e+000
1.601254752303834e-007	1.200000e+001	4.776063e+000
1.615540466588224e-007	1.200000e+001	4.776108e+000
1.629826180872614e-007	1.200000e+001	4.776154e+000
1.644111895157005e-007	1.200000e+001	4.776199e+000
1.658397609441395e-007	1.200000e+001	4.776245e+000
1.672683323725786e-007	1.200000e+001	4.776291e+000
1.686969038010176e-007	1.200000e+001	4.776337e+000
1.701254752294566e-007	1.200000e+001	4.776383e+000
1.717683323721615e-007	1.200000e+001	4.776436e+000
1.734111895148664e-007	1.200000e+001	4.776489e+000
1.750540466575713e-007	1.200000e+001	4.776542e+000
1.766969038002762e-007	1.200000e+001	4.776596e+000
1.783397609429811e-007	1.200000e+001	4.776649e+000
1.799826180856860e-007	1.200000e+001	4.776703e+000
1.816254752283909e-007	1.200000e+001	4.776756e+000
1.835540466567836e-007	1.200000e+001	4.776820e+000
1.854826180851762e-007	1.200000e+001	4.776883e+000
1.874111895135690e-007	1.200000e+001	4.776946e+000
1.893397609419617e-007	1.200000e+001	4.777010e+000
1.912683323703544e-007	1.200000e+001	4.777073e+000
1.931969037987470e-007	1.200000e+001	4.777137e+000
1.951254752271397e-007	1.200000e+001	4.777200e+000
1.974826180840641e-007	1.200000e+001	4.777278e+000
1.998397609409886e-007	1.200000e+001	4.777356e+000
2.021969037979130e-007	1.200000e+001	4.777434e+000
2.045540466548374e-007	1.200000e+001	4.777513e+000
2.069111895117618e-007	1.200000e+001	4.777591e+000
2.092683323686862e-007	1.200000e+001	4.777669e+000
2.116254752256106e-007	1.200000e+001	4.777748e+000
2.145540466539106e-007	1.200000e+001	4.777845e+000
2.174826180822107e-007	1.200000e+001	4.777943e+000
2.204111895105107e-007	1.200000e+001	4.778040e+000
2.233397609388107e-007	1.200000e+001	4.778138e+000
2.262683323671107e-007	1.200000e+001	4.778236e+000
2.291969037954107e-007	1.200000e+001	4.778334e+000
2.321254752237108e-007	1.200000e+001	4.778432e+000
2.356969037948084e-007	1.200000e+001	4.778551e+000
2.392683323659059e-007	1.200000e+001	4.778671e+000
2.428397609370036e-007	1.200000e+001	4.778791e+000
2.464111895081012e-007	1.200000e+001	4.778910e+000
2.499826180791987e-007	1.200000e+001	4.779030e+000
2.535540466502963e-007	1.200000e+001	4.779150e+000
2.571254752213939e-007	1.200000e+001	4.779271e+000
2.614826180781330e-007	1.200000e+001	4.779417e+000
2.658397609348720e-007	1.200000e+001	4.779564e+000
2.701969037916111e-007	1.200000e+001	4.779710e+000
2.745540466483501e-007	1.200000e+001	4.779857e+000
2.789111895050892e-007	1.200000e+001	4.780004e+000
2.832683323618282e-007	1.200000e+001	4.780151e+000
2.876254752185673e-007	1.200000e+001	4.780298e+000
2.929826180752137e-007	1.200000e+001	4.780478e+000
2.983397609318601e-007	1.200000e+001	4.780659e+000
3.036969037885065e-007	1.200000e+001	4.780840e+000
3.090540466451529e-007	1.200000e+001	4.781021e+000
3.144111895017993e-007	1.200000e+001	4.781202e+000
3.197683323584456e-007	1.200000e+001	4.781383e+000
3.251254752150920e-007	1.200000e+001	4.781564e+000
3.315540466430677e-007	1.200000e+001	4.781781e+000
3.379826180710433e-007	1.200000e+001	4.781999e+000
3.444111894990190e-007	1.200000e+001	4.782216e+000
3.508397609269947e-007	1.200000e+001	4.782434e+000
3.572683323549703e-007	1.200000e+001	4.782651e+000
3.636969037829460e-007	1.200000e+001	4.782869e+000
3.701254752109216e-007	1.200000e+001	4.783086e+000
3.777683323530705e-007	1.200000e+001	4.783345e+000
3.854111894952193e-007	1.200000e+001	4.783604e+000
3.930540466373682e-007	1.200000e+001	4.783863e+000
4.006969037795170e-007	1.200000e+001	4.784122e+000
4.083397609216659e-007	1.200000e+001	4.784381e+000
4.159826180638147e-007	1.200000e+001	4.784640e+000
4.236254752059635e-007	1.200000e+001	4.784899e+000
4.326254752051294e-007	1.200000e+001	4.785204e+000
4.416254752042954e-007	1.200000e+001	4.785509e+000
4.506254752034613e-007	1.200000e+001	4.785814e+000
4.596254752026272e-007	1.200000e+001	4.786119e+000
4.686254752017931e-007	1.200000e+001	4.786425e+000
4.776254752009591e-007	1.200000e+001	4.786730e+000
4.866254752001250e-007	1.200000e+001	4.787035e+000
4.986254751990129e-007	1.200000e+001	4.787442e+000
5.091969037694618e-007	1.200000e+001	4.787800e+000
5.197683323399106e-007	1.200000e+001	4.788159e+000
5.303397609103595e-007	1.200000e+001	4.788518e+000
5.409111894808083e-007	1.200000e+001	4.788876e+000
5.514826180512572e-007	1.200000e+001	4.789234e+000
5.620540466217061e-007	1.200000e+001	4.789593e+000
5.726254751921549e-007	1.200000e+001	4.789951e+000
5.840540466196672e-007	1.200000e+001	4.790339e+000
5.954826180471795e-007	1.200000e+001	4.790727e+000
6.069111894746918e-007	1.200000e+001	4.791114e+000
6.183397609022041e-007	1.200000e+001	4.791502e+000
6.297683323297164e-007	1.200000e+001	4.791889e+000
6.411969037572287e-007	1.200000e+001	4.792277e+000
6.526254751847409e-007	1.200000e+001	4.792665e+000
6.640540466122532e-007	1.200000e+001	4.793052e+000
6.754826180397655e-007	1.200000e+001	4.793439e+000
6.869111894672778e-007	1.200000e+001	4.793827e+000
6.983397608947901e-007	1.200000e+001	4.794214e+000
7.097683323223024e-007	1.200000e+001	4.794602e+000
7.211969037498147e-007	1.200000e+001	4.794989e+000
7.326254751773269e-007	1.200000e+001	4.795377e+000
7.440540466048392e-007	1.200000e+001	4.795764e+000
7.554826180323515e-007	1.200000e+001	4.796152e+000
7.669111894598638e-007	1.200000e+001	4.796539e+000
7.783397608873761e-007	1.200000e+001	4.796927e+000
7.897683323148884e-007	1.200000e+001	4.797314e+000
8.011969037424007e-007	1.200000e+001	4.797701e+000
8.126254751699129e-007	1.200000e+001	4.798089e+000
8.240540465974252e-007	1.200000e+001	4.798476e+000
8.354826180249375e-007	1.200000e+001	4.798863e+000
8.469111894524498e-007	1.200000e+001	4.799250e+000
8.583397608799621e-007	1.200000e+001	4.799637e+000
8.697683323074744e-007	1.200000e+001	4.800025e+000
8.811969037349867e-007	1.200000e+001	4.800412e+000
8.926254751624990e-007	1.200000e+001	4.800799e+000
9.040540465900112e-007	1.200000e+001	4.801186e+000
9.154826180175235e-007	1.200000e+001	4.801573e+000
9.269111894450358e-007	1.200000e+001	4.801960e+000
9.383397608725481e-007	1.200000e+001	4.802347e+000
9.497683323000604e-007	1.200000e+001	4.802734e+000
9.611969037275726e-007	1.200000e+001	4.803121e+000
9.726254751550850e-007	1.200000e+001	4.803508e+000
9.779826180117312e-007	1.200000e+001	4.803690e+000
9.833397608683778e-007	1.200000e+001	4.803871e+000
9.886969037250240e-007	1.200000e+001	4.804052e+000
9.940540465816705e-007	1.200000e+001	4.804234e+000
9.994111894383168e-007	1.200000e+001	4.804415e+000
1.004768332294963e-006	1.200000e+001	4.804596e+000
1.010125475151610e-006	1.200000e+001	4.804778e+000
1.010625475151563e-006	1.200000e+001	4.804795e+000
1.021982618007654e-006	1.200000e+001	4.805179e+000
1.033339760863744e-006	1.200000e+001	4.805563e+000
1.044696903719834e-006	1.200000e+001	4.805948e+000
1.056054046575925e-006	1.200000e+001	4.806332e+000
1.067411189432015e-006	1.200000e+001	4.806717e+000
1.078768332288105e-006	1.200000e+001	4.807101e+000
1.090125475144196e-006	1.200000e+001	4.807486e+000
1.101411189428864e-006	1.200000e+001	4.807867e+000
1.112696903713532e-006	1.200000e+001	4.808249e+000
1.123982617998201e-006	1.200000e+001	4.808631e+000
1.135268332282869e-006	1.200000e+001	4.809013e+000
1.146554046567538e-006	1.200000e+001	4.809394e+000
1.157839760852206e-006	1.200000e+001	4.809776e+000
1.169125475136874e-006	1.200000e+001	4.810158e+000
1.180268332278699e-006	1.200000e+001	4.810535e+000
1.191411189420523e-006	1.200000e+001	4.810912e+000
1.202554046562348e-006	1.200000e+001	4.811289e+000
1.213696903704172e-006	1.200000e+001	4.811666e+000
1.224839760845997e-006	1.200000e+001	4.812042e+000
1.235982617987821e-006	1.200000e+001	4.812419e+000
1.247125475129646e-006	1.200000e+001	4.812796e+000
1.257982617985782e-006	1.200000e+001	4.813163e+000
1.268839760841919e-006	1.200000e+001	4.813530e+000
1.279696903698056e-006	1.200000e+001	4.813897e+000
1.290554046554192e-006	1.200000e+001	4.814264e+000
1.301411189410329e-006	1.200000e+001	4.814631e+000
1.312268332266466e-006	1.200000e+001	4.814998e+000
1.323125475122602e-006	1.200000e+001	4.815365e+000
1.333482617978785e-006	1.200000e+001	4.815715e+000
1.343839760834968e-006	1.200000e+001	4.816065e+000
1.354196903691151e-006	1.200000e+001	4.816415e+000
1.364554046547335e-006	1.200000e+001	4.816765e+000
1.374911189403517e-006	1.200000e+001	4.817115e+000
1.385268332259701e-006	1.200000e+001	4.817465e+000
1.395625475115883e-006	1.200000e+001	4.817815e+000
1.405125475115003e-006	1.200000e+001	4.818136e+000
1.414625475114123e-006	1.200000e+001	4.818457e+000
1.424125475113242e-006	1.200000e+001	4.818777e+000
1.433625475112362e-006	1.200000e+001	4.819098e+000
1.443125475111481e-006	1.200000e+001	4.819419e+000
1.452625475110601e-006	1.200000e+001	4.819740e+000
1.462125475109721e-006	1.200000e+001	4.820061e+000
1.469911189394713e-006	1.200000e+001	4.820324e+000
1.477696903679706e-006	1.200000e+001	4.820587e+000
1.485482617964699e-006	1.200000e+001	4.820850e+000
1.493268332249692e-006	1.200000e+001	4.821112e+000
1.501054046534684e-006	1.200000e+001	4.821375e+000
1.508839760819677e-006	1.200000e+001	4.821638e+000
1.516625475104670e-006	1.200000e+001	4.821901e+000
1.522625475104114e-006	1.200000e+001	4.822104e+000
1.533768332245938e-006	1.200000e+001	4.822480e+000
1.544911189387763e-006	1.200000e+001	4.822856e+000
1.556054046529587e-006	1.200000e+001	4.823232e+000
1.567196903671412e-006	1.200000e+001	4.823608e+000
1.578339760813236e-006	1.200000e+001	4.823984e+000
1.589482617955061e-006	1.200000e+001	4.824360e+000
1.600625475096885e-006	1.200000e+001	4.824736e+000
1.618054046523841e-006	1.200000e+001	4.825324e+000
1.635482617950797e-006	1.200000e+001	4.825912e+000
1.652911189377754e-006	1.200000e+001	4.826500e+000
1.670339760804710e-006	1.200000e+001	4.827088e+000
1.687768332231666e-006	1.200000e+001	4.827676e+000
1.705196903658622e-006	1.200000e+001	4.828264e+000
1.722625475085579e-006	1.200000e+001	4.828852e+000
1.751125475082938e-006	1.200000e+001	4.829813e+000
1.779625475080296e-006	1.200000e+001	4.830774e+000
1.808125475077655e-006	1.200000e+001	4.831735e+000
1.836625475075014e-006	1.200000e+001	4.832695e+000
1.865125475072373e-006	1.200000e+001	4.833655e+000
1.893625475069731e-006	1.200000e+001	4.834616e+000
1.922125475067090e-006	1.200000e+001	4.835576e+000
2.034625475056664e-006	1.200000e+001	4.839364e+000
2.107696903621321e-006	1.200000e+001	4.841824e+000
2.180768332185977e-006	1.200000e+001	4.844282e+000
2.253839760750634e-006	1.200000e+001	4.846740e+000
2.326911189315291e-006	1.200000e+001	4.849196e+000
2.399982617879948e-006	1.200000e+001	4.851652e+000
2.473054046444604e-006	1.200000e+001	4.854107e+000
2.546125475009261e-006	1.200000e+001	4.856560e+000
2.546625475009215e-006	1.200000e+001	4.856577e+000
3.058625474961765e-006	1.200000e+001	4.873742e+000
3.570625474914315e-006	1.200000e+001	4.890859e+000
4.082625474866866e-006	1.200000e+001	4.907928e+000
4.594625474819416e-006	1.200000e+001	4.924950e+000
5.106625474771967e-006	1.200000e+001	4.941925e+000
5.618625474724517e-006	1.200000e+001	4.958852e+000
6.130625474677067e-006	1.200000e+001	4.975732e+000
6.642625474629618e-006	1.200000e+001	4.992565e+000
7.154625474582168e-006	1.200000e+001	5.009352e+000
7.666625474534719e-006	1.200000e+001	5.026091e+000
8.178625474487269e-006	1.200000e+001	5.042784e+000
8.690625474439820e-006	1.200000e+001	5.059431e+000
9.202625474392370e-006	1.200000e+001	5.076031e+000
9.714625474344920e-006	1.200000e+001	5.092585e+000
1.000100000000004e-005	1.200000e+001	5.101824e+000
1.000105000000006e-005	1.140000e+001	5.101826e+000
1.000115000000009e-005	1.020000e+001	5.101829e+000
1.000135000000005e-005	7.800000e+000	5.101835e+000
1.000160000000014e-005	4.800000e+000	5.101843e+000
1.000199999999995e-005	6.242100e-010	5.101856e+000
1.000203999999990e-005	0.000000e+000	5.101858e+000
1.000211999999990e-005	0.000000e+000	5.101860e+000
1.000227999999992e-005	0.000000e+000	5.101865e+000
1.000259999999983e-005	0.000000e+000	5.101875e+000
1.000659999999946e-005	0.000000e+000	5.102004e+000
1.001059999999909e-005	0.000000e+000	5.102133e+000
1.001459999999872e-005	0.000000e+000	5.102262e+000
1.001859999999835e-005	0.000000e+000	5.102390e+000
1.002259999999798e-005	0.000000e+000	5.102518e+000
1.002659999999760e-005	0.000000e+000	5.102647e+000
1.003059999999723e-005	0.000000e+000	5.102775e+000
1.003359999999696e-005	0.000000e+000	5.102870e+000
1.003659999999668e-005	0.000000e+000	5.102966e+000
1.003959999999640e-005	0.000000e+000	5.103062e+000
1.004259999999612e-005	0.000000e+000	5.103157e+000
1.004559999999584e-005	0.000000e+000	5.103252e+000
1.004859999999557e-005	0.000000e+000	5.103347e+000
1.005159999999529e-005	0.000000e+000	5.103442e+000
1.005409999999506e-005	0.000000e+000	5.103521e+000
1.005659999999482e-005	0.000000e+000	5.103600e+000
1.005909999999459e-005	0.000000e+000	5.103679e+000
1.006159999999436e-005	0.000000e+000	5.103757e+000
